T35CC 000:007.201   SEGGER J-Link V6.70e Log File
T35CC 000:007.318   DLL Compiled: Apr 17 2020 17:55:05
T35CC 000:007.325   Logging started @ 2021-08-07 02:07
T35CC 000:007.334 JLINK_SetWarnOutHandler(...)
T35CC 000:007.343 - 0.011ms
T35CC 000:007.352 JLINK_OpenEx(...)
T35CC 000:008.879   Firmware: J-Link V9 compiled Dec 13 2019 11:14:50
T35CC 000:009.140   Decompressing FW timestamp took 220 us
T35CC 000:015.110   Hardware: V9.70
T35CC 000:015.132   S/N: 59700618
T35CC 000:015.142   OEM: SEGGER
T35CC 000:015.151   Feature(s): RDI, FlashBP, FlashDL, JFlash, GDB
T35CC 000:015.951   TELNET listener socket opened on port 19021
T35CC 000:016.129   WEBSRV Starting webserver
T35CC 000:016.233   WEBSRV Webserver running on local port 19080
T35CC 000:016.244 - 8.894ms returns "O.K."
T35CC 000:016.262 JLINK_GetEmuCaps()
T35CC 000:016.269 - 0.009ms returns 0xB9FF7BBF
T35CC 000:016.279 JLINK_TIF_GetAvailable(...)
T35CC 000:016.404 - 0.134ms
T35CC 000:016.424 JLINK_SetErrorOutHandler(...)
T35CC 000:016.430 - 0.010ms
T35CC 000:016.450 JLINK_ExecCommand("ProjectFile = "C:\Users\Stone\Desktop\STM32 ´úÂëÑ§Ï°\01_Stand Temp\Project\JLinkSettings.ini"", ...). 
T35CC 000:025.739 - 9.307ms returns 0x00
T35CC 000:032.219 JLINK_ExecCommand("Device = STM32F103ZE", ...). 
T35CC 000:039.820   Device "STM32F103ZE" selected.
T35CC 000:040.351 - 8.116ms returns 0x00
T35CC 000:040.369 JLINK_ExecCommand("DisableConnectionTimeout", ...). 
T35CC 000:040.381 - 0.006ms returns 0x01
T35CC 000:040.390 JLINK_GetHardwareVersion()
T35CC 000:040.396 - 0.009ms returns 0x17AE8
T35CC 000:040.405 JLINK_GetDLLVersion()  returns 67005
T35CC 000:040.422 JLINK_GetFirmwareString(...)
T35CC 000:040.429 - 0.010ms
T35CC 000:067.362 JLINK_GetDLLVersion()  returns 67005
T35CC 000:067.382 JLINK_GetCompileDateTime()
T35CC 000:067.389 - 0.009ms
T35CC 000:072.278 JLINK_GetFirmwareString(...)
T35CC 000:072.296 - 0.021ms
T35CC 000:076.369 JLINK_GetHardwareVersion()
T35CC 000:076.390 - 0.025ms returns 0x17AE8
T35CC 000:090.044 JLINK_TIF_Select(JLINKARM_TIF_JTAG)
T35CC 000:091.090 - 1.057ms returns 0x00
T35CC 000:091.121 JLINK_SetSpeed(10000)
T35CC 000:091.220 - 0.106ms
T35CC 000:091.236 JLINK_GetIdData(pIdData)
T35CC 000:097.321   TotalIRLen = 9, IRPrint = 0x0011
T35CC 000:100.866   JTAG chain detection found 2 devices:
T35CC 000:104.154    #0 Id: 0x3BA00477, IRLen: 04, CoreSight JTAG-DP
T35CC 000:107.237    #1 Id: 0x06414041, IRLen: 05, STM32 Boundary Scan
T35CC 000:115.348   TotalIRLen = 9, IRPrint = 0x0011
T35CC 000:118.422   JTAG chain detection found 2 devices:
T35CC 000:121.451    #0 Id: 0x3BA00477, IRLen: 04, CoreSight JTAG-DP
T35CC 000:124.512    #1 Id: 0x06414041, IRLen: 05, STM32 Boundary Scan
T35CC 000:125.428   Old FW that does not support reading DPIDR via DAP jobs
T35CC 000:129.532   Unknown DP version. Assuming DPv0
T35CC 000:132.643   Scanning AP map to find all available APs
T35CC 000:136.519   AP[1]: Stopped AP scan as end of AP map has been reached
T35CC 000:139.946   AP[0]: AHB-AP (IDR: 0x14770011)
T35CC 000:143.112   Iterating through AP map to find AHB-AP to use
T35CC 000:147.315   AP[0]: Core found
T35CC 000:150.854   AP[0]: AHB-AP ROM base: 0xE00FF000
T35CC 000:155.091   CPUID register: 0x411FC231. Implementer code: 0x41 (ARM)
T35CC 000:158.611   Found Cortex-M3 r1p1, Little endian.
T35CC 000:158.991    -- Max. mem block: 0x00010DD0
T35CC 000:159.018   CPU_ReadMem(4 bytes @ 0xE000EDF0)
T35CC 000:160.118   CPU_WriteMem(4 bytes @ 0xE000EDF0)
T35CC 000:160.338   CPU_ReadMem(4 bytes @ 0xE0002000)
T35CC 000:164.372   FPUnit: 6 code (BP) slots and 2 literal slots
T35CC 000:164.407   CPU_ReadMem(4 bytes @ 0xE000EDFC)
T35CC 000:164.681   CPU_WriteMem(4 bytes @ 0xE000EDFC)
T35CC 000:164.921   CPU_ReadMem(4 bytes @ 0xE0001000)
T35CC 000:165.177   CPU_WriteMem(4 bytes @ 0xE0001000)
T35CC 000:165.404   CPU_ReadMem(4 bytes @ 0xE000ED88)
T35CC 000:165.613   CPU_WriteMem(4 bytes @ 0xE000ED88)
T35CC 000:165.814   CPU_ReadMem(4 bytes @ 0xE000ED88)
T35CC 000:166.032   CPU_WriteMem(4 bytes @ 0xE000ED88)
T35CC 000:169.476   CoreSight components:
T35CC 000:172.461   ROMTbl[0] @ E00FF000
T35CC 000:172.486   CPU_ReadMem(64 bytes @ 0xE00FF000)
T35CC 000:172.846   CPU_ReadMem(32 bytes @ 0xE000EFE0)
T35CC 000:176.200   ROMTbl[0][0]: E000E000, CID: B105E00D, PID: 001BB000 SCS
T35CC 000:176.227   CPU_ReadMem(32 bytes @ 0xE0001FE0)
T35CC 000:179.912   ROMTbl[0][1]: E0001000, CID: B105E00D, PID: 001BB002 DWT
T35CC 000:179.937   CPU_ReadMem(32 bytes @ 0xE0002FE0)
T35CC 000:183.166   ROMTbl[0][2]: E0002000, CID: B105E00D, PID: 000BB003 FPB
T35CC 000:183.187   CPU_ReadMem(32 bytes @ 0xE0000FE0)
T35CC 000:186.307   ROMTbl[0][3]: E0000000, CID: B105E00D, PID: 001BB001 ITM
T35CC 000:186.326   CPU_ReadMem(32 bytes @ 0xE0040FE0)
T35CC 000:189.384   ROMTbl[0][4]: E0040000, CID: B105900D, PID: 001BB923 TPIU-Lite
T35CC 000:189.403   CPU_ReadMem(32 bytes @ 0xE0041FE0)
T35CC 000:192.682   ROMTbl[0][5]: E0041000, CID: B105900D, PID: 101BB924 ETM-M3
T35CC 000:192.734   pIdData->ScanLen=9
T35CC 000:192.744   
T35CC 000:192.750   pIdData->NumDevices=2
T35CC 000:192.758   
T35CC 000:192.764   pIdData->aId[0]=0x3BA00477
T35CC 000:192.773   
T35CC 000:192.778   pIdData->aIrRead[0]=0
T35CC 000:192.787   
T35CC 000:192.793   pIdData->aScanLen[0]=0
T35CC 000:192.801   
T35CC 000:192.807   pIdData->aScanRead[0]=0
T35CC 000:192.816   
T35CC 000:192.821 - 101.588ms
T35CC 000:192.838 JLINK_JTAG_GetDeviceID(DeviceIndex = 0)
T35CC 000:192.845 - 0.010ms returns 0x3BA00477
T35CC 000:192.855 JLINK_JTAG_GetDeviceInfo(DeviceIndex = 0)
T35CC 000:192.862 - 0.009ms returns 0x00
T35CC 000:192.871 JLINK_JTAG_GetDeviceID(DeviceIndex = 1)
T35CC 000:192.877 - 0.009ms returns 0x6414041
T35CC 000:192.886 JLINK_JTAG_GetDeviceInfo(DeviceIndex = 1)
T35CC 000:192.892 - 0.009ms returns 0x00
T35CC 000:192.902 JLINK_GetDLLVersion()  returns 67005
T35CC 000:192.949 JLINK_CORE_GetFound()
T35CC 000:192.959 - 0.013ms returns 0x30000FF
T35CC 000:192.968 JLINK_GetDebugInfo(0x100 = JLINKARM_ROM_TABLE_ADDR_INDEX)
T35CC 000:192.978   Value=0xE00FF000
T35CC 000:192.987 - 0.022ms returns 0x00
T35CC 000:196.771 JLINK_GetDebugInfo(0x100 = JLINKARM_ROM_TABLE_ADDR_INDEX)
T35CC 000:196.790   Value=0xE00FF000
T35CC 000:196.799 - 0.031ms returns 0x00
T35CC 000:196.808 JLINK_GetDebugInfo(0x101 = JLINKARM_DEBUG_INFO_ETM_ADDR_INDEX)
T35CC 000:196.814   Value=0xE0041000
T35CC 000:196.823 - 0.018ms returns 0x00
T35CC 000:196.832   JLINK_ReadMemEx(0xE0041FD0, 0x0020 Bytes, ..., Flags = 0x02000004)
T35CC 000:196.860   CPU_ReadMem(32 bytes @ 0xE0041FD0)
T35CC 000:197.202   Data:  04 00 00 00 00 00 00 00 00 00 00 00 00 00 00 00 ...
T35CC 000:197.215 - 0.387ms returns 0x20
T35CC 000:197.225 JLINK_GetDebugInfo(0x102 = JLINKARM_DEBUG_INFO_MTB_ADDR_INDEX)
T35CC 000:197.232   Value=0x00000000
T35CC 000:197.241 - 0.018ms returns 0x00
T35CC 000:197.249 JLINK_GetDebugInfo(0x103 = JLINKARM_DEBUG_INFO_TPIU_ADDR_INDEX)
T35CC 000:197.255   Value=0xE0040000
T35CC 000:197.263 - 0.017ms returns 0x00
T35CC 000:197.271 JLINK_GetDebugInfo(0x104 = JLINKARM_DEBUG_INFO_ITM_ADDR_INDEX)
T35CC 000:197.277   Value=0xE0000000
T35CC 000:197.286 - 0.017ms returns 0x00
T35CC 000:197.294 JLINK_GetDebugInfo(0x105 = JLINKARM_DEBUG_INFO_DWT_ADDR_INDEX)
T35CC 000:197.300   Value=0xE0001000
T35CC 000:197.308 - 0.017ms returns 0x00
T35CC 000:197.316 JLINK_GetDebugInfo(0x106 = JLINKARM_DEBUG_INFO_FPB_ADDR_INDEX)
T35CC 000:197.322   Value=0xE0002000
T35CC 000:197.331 - 0.017ms returns 0x00
T35CC 000:197.338 JLINK_GetDebugInfo(0x107 = JLINKARM_DEBUG_INFO_NVIC_ADDR_INDEX)
T35CC 000:197.345   Value=0xE000E000
T35CC 000:197.353 - 0.017ms returns 0x00
T35CC 000:197.361 JLINK_GetDebugInfo(0x10C = JLINKARM_DEBUG_INFO_DBG_ADDR_INDEX)
T35CC 000:197.367   Value=0xE000EDF0
T35CC 000:197.375 - 0.019ms returns 0x00
T35CC 000:197.385 JLINK_GetDebugInfo(0x01 = Unknown)
T35CC 000:197.393   Value=0x00000000
T35CC 000:197.401 - 0.019ms returns 0x00
T35CC 000:197.411 JLINK_ReadMemU32(0xE000ED00, 0x0001 Items, ...)
T35CC 000:197.421   CPU_ReadMem(4 bytes @ 0xE000ED00)
T35CC 000:197.644   Data:  31 C2 1F 41
T35CC 000:197.663    - CPUID
T35CC 000:197.672 - 0.264ms returns 1
T35CC 000:197.683 JLINK_GetDebugInfo(0x10F = JLINKARM_DEBUG_INFO_HAS_CORTEX_M_SECURITY_EXT_INDEX)
T35CC 000:197.690   Value=0x00000000
T35CC 000:197.698 - 0.018ms returns 0x00
T35CC 000:197.709 JLINK_SetResetType(JLINKARM_CM3_RESET_TYPE_NORMAL)
T35CC 000:197.715 - 0.009ms returns JLINKARM_CM3_RESET_TYPE_NORMAL
T35CC 000:197.723 JLINK_Reset()
T35CC 000:197.739   CPU is running
T35CC 000:197.749   CPU_WriteMem(4 bytes @ 0xE000EDF0)
T35CC 000:197.972   CPU is running
T35CC 000:197.986   CPU_WriteMem(4 bytes @ 0xE000EDFC)
T35CC 000:201.143   Reset: Halt core after reset via DEMCR.VC_CORERESET.
T35CC 000:204.035   Reset: Reset device via AIRCR.SYSRESETREQ.
T35CC 000:204.054   CPU is running
T35CC 000:204.066   CPU_WriteMem(4 bytes @ 0xE000ED0C)
T35CC 000:256.359   CPU_ReadMem(4 bytes @ 0xE000EDF0)
T35CC 000:256.655   CPU_ReadMem(4 bytes @ 0xE000EDF0)
T35CC 000:256.978   CPU is running
T35CC 000:256.992   CPU_WriteMem(4 bytes @ 0xE000EDF0)
T35CC 000:257.272   CPU is running
T35CC 000:257.286   CPU_WriteMem(4 bytes @ 0xE000EDFC)
T35CC 000:263.341   CPU_ReadMem(4 bytes @ 0xE000EDF0)
T35CC 000:264.928   CPU_WriteMem(4 bytes @ 0xE000EDFC)
T35CC 000:265.191   CPU_WriteMem(4 bytes @ 0xE0001028)
T35CC 000:265.412   CPU_WriteMem(4 bytes @ 0xE0001038)
T35CC 000:265.671   CPU_WriteMem(4 bytes @ 0xE0001048)
T35CC 000:265.933   CPU_WriteMem(4 bytes @ 0xE0001058)
T35CC 000:266.197   CPU_WriteMem(4 bytes @ 0xE0002000)
T35CC 000:266.422   CPU_ReadMem(4 bytes @ 0xE000EDFC)
T35CC 000:266.710   CPU_ReadMem(4 bytes @ 0xE0001000)
T35CC 000:266.911 - 69.194ms
T35CC 000:266.930 JLINK_Halt()
T35CC 000:266.937 - 0.010ms returns 0x00
T35CC 000:266.948 JLINK_ReadMemU32(0xE000EDF0, 0x0001 Items, ...)
T35CC 000:266.959   CPU_ReadMem(4 bytes @ 0xE000EDF0)
T35CC 000:267.172   Data:  03 00 03 00
T35CC 000:267.185    - DHCSR
T35CC 000:267.194 - 0.249ms returns 1
T35CC 000:267.206 JLINK_WriteU32(0xE000EDF0, 0xA05F0003)
T35CC 000:267.213    - DHCSR
T35CC 000:267.231   CPU_WriteMem(4 bytes @ 0xE000EDF0)
T35CC 000:267.417 - 0.218ms returns 0
T35CC 000:267.434 JLINK_WriteU32(0xE000EDFC, 0x01000000)
T35CC 000:267.441    - DEMCR
T35CC 000:267.454   CPU_WriteMem(4 bytes @ 0xE000EDFC)
T35CC 000:267.642 - 0.214ms returns 0
T35CC 000:281.001 JLINK_GetHWStatus(...)
T35CC 000:281.259 - 0.267ms returns 0x00
T35CC 000:291.321 JLINK_GetNumBPUnits(Type = 0xFFFFFF00)
T35CC 000:291.338 - 0.020ms returns 0x06
T35CC 000:291.347 JLINK_GetNumBPUnits(Type = 0xF0)
T35CC 000:291.354 - 0.009ms returns 0x2000
T35CC 000:291.362 JLINK_GetNumWPUnits()
T35CC 000:291.368 - 0.009ms returns 0x04
T35CC 000:300.492 JLINK_GetSpeed()
T35CC 000:300.508 - 0.020ms returns 0x2710
T35CC 000:306.512 JLINK_ReadMemU32(0xE000E004, 0x0001 Items, ...)
T35CC 000:306.538   CPU_ReadMem(4 bytes @ 0xE000E004)
T35CC 000:306.880   Data:  01 00 00 00
T35CC 000:306.897 - 0.388ms returns 1
T35CC 000:306.908 JLINK_ReadMemU32(0xE000E004, 0x0001 Items, ...)
T35CC 000:306.920   CPU_ReadMem(4 bytes @ 0xE000E004)
T35CC 000:307.234   Data:  01 00 00 00
T35CC 000:307.249 - 0.343ms returns 1
T35CC 000:307.260 JLINK_WriteMemEx(0xE0001000, 0x001C Bytes, ..., Flags = 0x02000004)
T35CC 000:307.267   Data:  01 00 00 00 00 00 00 00 00 00 00 00 00 00 00 00 ...
T35CC 000:307.712   CPU_WriteMem(28 bytes @ 0xE0001000)
T35CC 000:308.095 - 0.843ms returns 0x1C
T35CC 000:308.114 JLINK_Halt()
T35CC 000:308.121 - 0.010ms returns 0x00
T35CC 000:308.129 JLINK_IsHalted()
T35CC 000:308.136 - 0.010ms returns TRUE
T35CC 000:311.326 JLINK_WriteMem(0x20000000, 0x0164 Bytes, ...)
T35CC 000:311.339   Data:  00 BE 0A E0 0D 78 2D 06 68 40 08 24 40 00 00 D3 ...
T35CC 000:311.813   CPU_WriteMem(356 bytes @ 0x20000000)
T35CC 000:313.012 - 1.694ms returns 0x164
T35CC 000:313.049 JLINK_WriteReg(R0, 0x08000000)
T35CC 000:313.060 - 0.014ms returns 0x00
T35CC 000:313.068 JLINK_WriteReg(R1, 0x00B71B00)
T35CC 000:313.075 - 0.010ms returns 0x00
T35CC 000:313.083 JLINK_WriteReg(R2, 0x00000001)
T35CC 000:313.090 - 0.012ms returns 0x00
T35CC 000:313.102 JLINK_WriteReg(R3, 0x00000000)
T35CC 000:313.108 - 0.010ms returns 0x00
T35CC 000:313.116 JLINK_WriteReg(R4, 0x00000000)
T35CC 000:313.123 - 0.009ms returns 0x00
T35CC 000:313.131 JLINK_WriteReg(R5, 0x00000000)
T35CC 000:313.138 - 0.009ms returns 0x00
T35CC 000:313.146 JLINK_WriteReg(R6, 0x00000000)
T35CC 000:313.152 - 0.009ms returns 0x00
T35CC 000:313.160 JLINK_WriteReg(R7, 0x00000000)
T35CC 000:313.167 - 0.009ms returns 0x00
T35CC 000:313.175 JLINK_WriteReg(R8, 0x00000000)
T35CC 000:313.182 - 0.010ms returns 0x00
T35CC 000:313.190 JLINK_WriteReg(R9, 0x20000160)
T35CC 000:313.197 - 0.009ms returns 0x00
T35CC 000:313.205 JLINK_WriteReg(R10, 0x00000000)
T35CC 000:313.211 - 0.010ms returns 0x00
T35CC 000:313.219 JLINK_WriteReg(R11, 0x00000000)
T35CC 000:313.226 - 0.009ms returns 0x00
T35CC 000:313.234 JLINK_WriteReg(R12, 0x00000000)
T35CC 000:313.241 - 0.009ms returns 0x00
T35CC 000:313.249 JLINK_WriteReg(R13 (SP), 0x20001000)
T35CC 000:313.256 - 0.010ms returns 0x00
T35CC 000:313.264 JLINK_WriteReg(R14, 0x20000001)
T35CC 000:313.271 - 0.010ms returns 0x00
T35CC 000:313.279 JLINK_WriteReg(R15 (PC), 0x20000038)
T35CC 000:313.286 - 0.010ms returns 0x00
T35CC 000:313.294 JLINK_WriteReg(XPSR, 0x01000000)
T35CC 000:313.300 - 0.009ms returns 0x00
T35CC 000:313.308 JLINK_WriteReg(MSP, 0x20001000)
T35CC 000:313.315 - 0.009ms returns 0x00
T35CC 000:313.323 JLINK_WriteReg(PSP, 0x20001000)
T35CC 000:313.330 - 0.009ms returns 0x00
T35CC 000:313.338 JLINK_WriteReg(CFBP, 0x00000000)
T35CC 000:313.344 - 0.009ms returns 0x00
T35CC 000:313.353   JLINK_SetBPEx(Addr = 0x20000000, Type = 0xFFFFFFF2)
T35CC 000:313.366   CPU_ReadMem(2 bytes @ 0x20000000)
T35CC 000:313.649 - 0.306ms returns 0x00000001
T35CC 000:313.667 JLINK_Go()
T35CC 000:313.678   CPU_WriteMem(2 bytes @ 0x20000000)
T35CC 000:313.955   CPU_ReadMem(4 bytes @ 0xE0001000)
T35CC 000:314.304   CPU_WriteMem(4 bytes @ 0xE0002008)
T35CC 000:314.319   CPU_WriteMem(4 bytes @ 0xE000200C)
T35CC 000:314.329   CPU_WriteMem(4 bytes @ 0xE0002010)
T35CC 000:314.338   CPU_WriteMem(4 bytes @ 0xE0002014)
T35CC 000:314.347   CPU_WriteMem(4 bytes @ 0xE0002018)
T35CC 000:314.357   CPU_WriteMem(4 bytes @ 0xE000201C)
T35CC 000:315.238   CPU_WriteMem(4 bytes @ 0xE0001004)
T35CC 000:316.945 - 3.286ms
T35CC 000:316.961 JLINK_IsHalted()
T35CC 000:318.276   CPU_ReadMem(2 bytes @ 0x20000000)
T35CC 000:318.599 - 1.646ms returns TRUE
T35CC 000:318.615 JLINK_ReadReg(R15 (PC))
T35CC 000:318.624 - 0.012ms returns 0x20000000
T35CC 000:318.633 JLINK_ClrBPEx(BPHandle = 0x00000001)
T35CC 000:318.640 - 0.010ms returns 0x00
T35CC 000:318.648 JLINK_ReadReg(R0)
T35CC 000:318.655 - 0.010ms returns 0x00000000
T35CC 000:318.950 JLINK_WriteReg(R0, 0x08000000)
T35CC 000:318.962 - 0.015ms returns 0x00
T35CC 000:318.970 JLINK_WriteReg(R1, 0x00B71B00)
T35CC 000:318.977 - 0.009ms returns 0x00
T35CC 000:318.985 JLINK_WriteReg(R2, 0x00000001)
T35CC 000:318.991 - 0.009ms returns 0x00
T35CC 000:318.999 JLINK_WriteReg(R3, 0x00000000)
T35CC 000:319.005 - 0.009ms returns 0x00
T35CC 000:319.013 JLINK_WriteReg(R4, 0x00000000)
T35CC 000:319.020 - 0.009ms returns 0x00
T35CC 000:319.027 JLINK_WriteReg(R5, 0x00000000)
T35CC 000:319.034 - 0.009ms returns 0x00
T35CC 000:319.042 JLINK_WriteReg(R6, 0x00000000)
T35CC 000:319.048 - 0.009ms returns 0x00
T35CC 000:319.056 JLINK_WriteReg(R7, 0x00000000)
T35CC 000:319.062 - 0.009ms returns 0x00
T35CC 000:319.070 JLINK_WriteReg(R8, 0x00000000)
T35CC 000:319.076 - 0.009ms returns 0x00
T35CC 000:319.084 JLINK_WriteReg(R9, 0x20000160)
T35CC 000:319.091 - 0.009ms returns 0x00
T35CC 000:319.098 JLINK_WriteReg(R10, 0x00000000)
T35CC 000:319.105 - 0.009ms returns 0x00
T35CC 000:319.113 JLINK_WriteReg(R11, 0x00000000)
T35CC 000:319.119 - 0.009ms returns 0x00
T35CC 000:319.127 JLINK_WriteReg(R12, 0x00000000)
T35CC 000:319.133 - 0.009ms returns 0x00
T35CC 000:319.141 JLINK_WriteReg(R13 (SP), 0x20001000)
T35CC 000:319.148 - 0.009ms returns 0x00
T35CC 000:319.156 JLINK_WriteReg(R14, 0x20000001)
T35CC 000:319.197 - 0.046ms returns 0x00
T35CC 000:319.207 JLINK_WriteReg(R15 (PC), 0x2000007C)
T35CC 000:319.214 - 0.009ms returns 0x00
T35CC 000:319.222 JLINK_WriteReg(XPSR, 0x01000000)
T35CC 000:319.228 - 0.009ms returns 0x00
T35CC 000:319.236 JLINK_WriteReg(MSP, 0x20001000)
T35CC 000:319.243 - 0.009ms returns 0x00
T35CC 000:319.250 JLINK_WriteReg(PSP, 0x20001000)
T35CC 000:319.257 - 0.009ms returns 0x00
T35CC 000:319.265 JLINK_WriteReg(CFBP, 0x00000000)
T35CC 000:319.271 - 0.009ms returns 0x00
T35CC 000:319.280   JLINK_SetBPEx(Addr = 0x20000000, Type = 0xFFFFFFF2)
T35CC 000:319.290 - 0.013ms returns 0x00000002
T35CC 000:319.298 JLINK_Go()
T35CC 000:319.309   CPU_ReadMem(4 bytes @ 0xE0001000)
T35CC 000:320.898 - 1.609ms
T35CC 000:320.915 JLINK_IsHalted()
T35CC 000:321.185 - 0.278ms returns FALSE
T35CC 000:333.798 JLINK_IsHalted()
T35CC 000:334.065 - 0.274ms returns FALSE
T35CC 000:335.818 JLINK_IsHalted()
T35CC 000:336.068 - 0.257ms returns FALSE
T35CC 000:337.828 JLINK_IsHalted()
T35CC 000:338.074 - 0.253ms returns FALSE
T35CC 000:339.822 JLINK_IsHalted()
T35CC 000:340.062 - 0.246ms returns FALSE
T35CC 000:341.818 JLINK_IsHalted()
T35CC 000:342.140 - 0.330ms returns FALSE
T35CC 000:343.841 JLINK_IsHalted()
T35CC 000:345.054   CPU_ReadMem(2 bytes @ 0x20000000)
T35CC 000:345.285 - 1.451ms returns TRUE
T35CC 000:345.302 JLINK_ReadReg(R15 (PC))
T35CC 000:345.311 - 0.013ms returns 0x20000000
T35CC 000:345.321 JLINK_ClrBPEx(BPHandle = 0x00000002)
T35CC 000:345.329 - 0.010ms returns 0x00
T35CC 000:345.339 JLINK_ReadReg(R0)
T35CC 000:345.346 - 0.010ms returns 0x00000000
T35CC 000:397.737 JLINK_WriteReg(R0, 0x00000001)
T35CC 000:397.759 - 0.025ms returns 0x00
T35CC 000:397.768 JLINK_WriteReg(R1, 0x00B71B00)
T35CC 000:397.775 - 0.009ms returns 0x00
T35CC 000:397.783 JLINK_WriteReg(R2, 0x00000001)
T35CC 000:397.789 - 0.009ms returns 0x00
T35CC 000:397.797 JLINK_WriteReg(R3, 0x00000000)
T35CC 000:397.804 - 0.009ms returns 0x00
T35CC 000:397.812 JLINK_WriteReg(R4, 0x00000000)
T35CC 000:397.818 - 0.009ms returns 0x00
T35CC 000:397.826 JLINK_WriteReg(R5, 0x00000000)
T35CC 000:397.832 - 0.009ms returns 0x00
T35CC 000:397.840 JLINK_WriteReg(R6, 0x00000000)
T35CC 000:397.847 - 0.009ms returns 0x00
T35CC 000:397.855 JLINK_WriteReg(R7, 0x00000000)
T35CC 000:397.861 - 0.009ms returns 0x00
T35CC 000:397.869 JLINK_WriteReg(R8, 0x00000000)
T35CC 000:397.875 - 0.009ms returns 0x00
T35CC 000:397.883 JLINK_WriteReg(R9, 0x20000160)
T35CC 000:397.890 - 0.009ms returns 0x00
T35CC 000:397.897 JLINK_WriteReg(R10, 0x00000000)
T35CC 000:397.904 - 0.009ms returns 0x00
T35CC 000:397.912 JLINK_WriteReg(R11, 0x00000000)
T35CC 000:397.918 - 0.009ms returns 0x00
T35CC 000:397.926 JLINK_WriteReg(R12, 0x00000000)
T35CC 000:397.933 - 0.009ms returns 0x00
T35CC 000:397.941 JLINK_WriteReg(R13 (SP), 0x20001000)
T35CC 000:397.948 - 0.010ms returns 0x00
T35CC 000:397.956 JLINK_WriteReg(R14, 0x20000001)
T35CC 000:397.962 - 0.009ms returns 0x00
T35CC 000:397.970 JLINK_WriteReg(R15 (PC), 0x2000006A)
T35CC 000:397.977 - 0.009ms returns 0x00
T35CC 000:397.985 JLINK_WriteReg(XPSR, 0x01000000)
T35CC 000:397.991 - 0.009ms returns 0x00
T35CC 000:397.999 JLINK_WriteReg(MSP, 0x20001000)
T35CC 000:398.006 - 0.009ms returns 0x00
T35CC 000:398.014 JLINK_WriteReg(PSP, 0x20001000)
T35CC 000:398.020 - 0.009ms returns 0x00
T35CC 000:398.028 JLINK_WriteReg(CFBP, 0x00000000)
T35CC 000:398.034 - 0.009ms returns 0x00
T35CC 000:398.043   JLINK_SetBPEx(Addr = 0x20000000, Type = 0xFFFFFFF2)
T35CC 000:398.054 - 0.014ms returns 0x00000003
T35CC 000:398.062 JLINK_Go()
T35CC 000:398.078   CPU_ReadMem(4 bytes @ 0xE0001000)
T35CC 000:399.911 - 1.858ms
T35CC 000:399.928 JLINK_IsHalted()
T35CC 000:401.260   CPU_ReadMem(2 bytes @ 0x20000000)
T35CC 000:401.606 - 1.686ms returns TRUE
T35CC 000:401.624 JLINK_ReadReg(R15 (PC))
T35CC 000:401.633 - 0.012ms returns 0x20000000
T35CC 000:401.641 JLINK_ClrBPEx(BPHandle = 0x00000003)
T35CC 000:401.648 - 0.010ms returns 0x00
T35CC 000:401.657 JLINK_ReadReg(R0)
T35CC 000:401.666 - 0.013ms returns 0x00000000
T35CC 000:408.075 JLINK_WriteMem(0x20000000, 0x0164 Bytes, ...)
T35CC 000:408.088   Data:  00 BE 0A E0 0D 78 2D 06 68 40 08 24 40 00 00 D3 ...
T35CC 000:408.106   CPU_WriteMem(356 bytes @ 0x20000000)
T35CC 000:409.307 - 1.241ms returns 0x164
T35CC 000:409.344 JLINK_WriteReg(R0, 0x08000000)
T35CC 000:409.355 - 0.014ms returns 0x00
T35CC 000:409.363 JLINK_WriteReg(R1, 0x00B71B00)
T35CC 000:409.370 - 0.010ms returns 0x00
T35CC 000:409.378 JLINK_WriteReg(R2, 0x00000002)
T35CC 000:409.385 - 0.010ms returns 0x00
T35CC 000:409.393 JLINK_WriteReg(R3, 0x00000000)
T35CC 000:409.400 - 0.009ms returns 0x00
T35CC 000:409.408 JLINK_WriteReg(R4, 0x00000000)
T35CC 000:409.414 - 0.009ms returns 0x00
T35CC 000:409.422 JLINK_WriteReg(R5, 0x00000000)
T35CC 000:409.429 - 0.009ms returns 0x00
T35CC 000:409.437 JLINK_WriteReg(R6, 0x00000000)
T35CC 000:409.444 - 0.009ms returns 0x00
T35CC 000:409.452 JLINK_WriteReg(R7, 0x00000000)
T35CC 000:409.458 - 0.009ms returns 0x00
T35CC 000:409.466 JLINK_WriteReg(R8, 0x00000000)
T35CC 000:409.473 - 0.010ms returns 0x00
T35CC 000:409.481 JLINK_WriteReg(R9, 0x20000160)
T35CC 000:409.488 - 0.009ms returns 0x00
T35CC 000:409.496 JLINK_WriteReg(R10, 0x00000000)
T35CC 000:409.502 - 0.009ms returns 0x00
T35CC 000:409.510 JLINK_WriteReg(R11, 0x00000000)
T35CC 000:409.517 - 0.009ms returns 0x00
T35CC 000:409.525 JLINK_WriteReg(R12, 0x00000000)
T35CC 000:409.532 - 0.009ms returns 0x00
T35CC 000:409.540 JLINK_WriteReg(R13 (SP), 0x20001000)
T35CC 000:409.547 - 0.010ms returns 0x00
T35CC 000:409.555 JLINK_WriteReg(R14, 0x20000001)
T35CC 000:409.562 - 0.009ms returns 0x00
T35CC 000:409.569 JLINK_WriteReg(R15 (PC), 0x20000038)
T35CC 000:409.576 - 0.010ms returns 0x00
T35CC 000:409.584 JLINK_WriteReg(XPSR, 0x01000000)
T35CC 000:409.591 - 0.009ms returns 0x00
T35CC 000:409.599 JLINK_WriteReg(MSP, 0x20001000)
T35CC 000:409.606 - 0.011ms returns 0x00
T35CC 000:409.615 JLINK_WriteReg(PSP, 0x20001000)
T35CC 000:409.622 - 0.010ms returns 0x00
T35CC 000:409.630 JLINK_WriteReg(CFBP, 0x00000000)
T35CC 000:409.637 - 0.009ms returns 0x00
T35CC 000:409.646   JLINK_SetBPEx(Addr = 0x20000000, Type = 0xFFFFFFF2)
T35CC 000:409.659   CPU_ReadMem(2 bytes @ 0x20000000)
T35CC 000:409.996 - 0.359ms returns 0x00000004
T35CC 000:410.012 JLINK_Go()
T35CC 000:410.023   CPU_WriteMem(2 bytes @ 0x20000000)
T35CC 000:410.346   CPU_ReadMem(4 bytes @ 0xE0001000)
T35CC 000:412.124 - 2.120ms
T35CC 000:412.140 JLINK_IsHalted()
T35CC 000:413.440   CPU_ReadMem(2 bytes @ 0x20000000)
T35CC 000:413.796 - 1.663ms returns TRUE
T35CC 000:413.812 JLINK_ReadReg(R15 (PC))
T35CC 000:413.820 - 0.012ms returns 0x20000000
T35CC 000:413.829 JLINK_ClrBPEx(BPHandle = 0x00000004)
T35CC 000:413.836 - 0.010ms returns 0x00
T35CC 000:413.845 JLINK_ReadReg(R0)
T35CC 000:413.851 - 0.009ms returns 0x00000000
T35CC 000:414.131 JLINK_WriteMem(0x20000164, 0x029C Bytes, ...)
T35CC 000:414.142   Data:  90 24 00 20 45 01 00 08 A3 0E 00 08 BD 05 00 08 ...
T35CC 000:414.157   CPU_WriteMem(668 bytes @ 0x20000164)
T35CC 000:415.867 - 1.744ms returns 0x29C
T35CC 000:415.883 JLINK_WriteMem(0x20000400, 0x0164 Bytes, ...)
T35CC 000:415.891   Data:  08 C0 C0 F8 0C E0 BD E8 F0 83 70 47 7C B5 08 20 ...
T35CC 000:415.909   CPU_WriteMem(356 bytes @ 0x20000400)
T35CC 000:417.072 - 1.197ms returns 0x164
T35CC 000:417.092 JLINK_WriteReg(R0, 0x08000000)
T35CC 000:417.101 - 0.012ms returns 0x00
T35CC 000:417.109 JLINK_WriteReg(R1, 0x00000400)
T35CC 000:417.116 - 0.010ms returns 0x00
T35CC 000:417.124 JLINK_WriteReg(R2, 0x20000164)
T35CC 000:417.131 - 0.010ms returns 0x00
T35CC 000:417.139 JLINK_WriteReg(R3, 0x00000000)
T35CC 000:417.146 - 0.009ms returns 0x00
T35CC 000:417.154 JLINK_WriteReg(R4, 0x00000000)
T35CC 000:417.160 - 0.009ms returns 0x00
T35CC 000:417.168 JLINK_WriteReg(R5, 0x00000000)
T35CC 000:417.175 - 0.009ms returns 0x00
T35CC 000:417.183 JLINK_WriteReg(R6, 0x00000000)
T35CC 000:417.189 - 0.009ms returns 0x00
T35CC 000:417.197 JLINK_WriteReg(R7, 0x00000000)
T35CC 000:417.206 - 0.013ms returns 0x00
T35CC 000:417.215 JLINK_WriteReg(R8, 0x00000000)
T35CC 000:417.222 - 0.009ms returns 0x00
T35CC 000:417.230 JLINK_WriteReg(R9, 0x20000160)
T35CC 000:417.237 - 0.009ms returns 0x00
T35CC 000:417.244 JLINK_WriteReg(R10, 0x00000000)
T35CC 000:417.251 - 0.009ms returns 0x00
T35CC 000:417.259 JLINK_WriteReg(R11, 0x00000000)
T35CC 000:417.266 - 0.009ms returns 0x00
T35CC 000:417.274 JLINK_WriteReg(R12, 0x00000000)
T35CC 000:417.280 - 0.009ms returns 0x00
T35CC 000:417.288 JLINK_WriteReg(R13 (SP), 0x20001000)
T35CC 000:417.295 - 0.010ms returns 0x00
T35CC 000:417.303 JLINK_WriteReg(R14, 0x20000001)
T35CC 000:417.310 - 0.009ms returns 0x00
T35CC 000:417.318 JLINK_WriteReg(R15 (PC), 0x200000F4)
T35CC 000:417.325 - 0.009ms returns 0x00
T35CC 000:417.333 JLINK_WriteReg(XPSR, 0x01000000)
T35CC 000:417.339 - 0.009ms returns 0x00
T35CC 000:417.347 JLINK_WriteReg(MSP, 0x20001000)
T35CC 000:417.354 - 0.009ms returns 0x00
T35CC 000:417.362 JLINK_WriteReg(PSP, 0x20001000)
T35CC 000:417.368 - 0.009ms returns 0x00
T35CC 000:417.376 JLINK_WriteReg(CFBP, 0x00000000)
T35CC 000:417.383 - 0.009ms returns 0x00
T35CC 000:417.392   JLINK_SetBPEx(Addr = 0x20000000, Type = 0xFFFFFFF2)
T35CC 000:417.401 - 0.013ms returns 0x00000005
T35CC 000:417.410 JLINK_Go()
T35CC 000:417.421   CPU_ReadMem(4 bytes @ 0xE0001000)
T35CC 000:419.158 - 1.756ms
T35CC 000:419.174 JLINK_IsHalted()
T35CC 000:419.460 - 0.293ms returns FALSE
T35CC 000:421.577 JLINK_IsHalted()
T35CC 000:421.865 - 0.296ms returns FALSE
T35CC 000:423.615 JLINK_IsHalted()
T35CC 000:423.938 - 0.330ms returns FALSE
T35CC 000:425.542 JLINK_IsHalted()
T35CC 000:425.829 - 0.295ms returns FALSE
T35CC 000:427.591 JLINK_IsHalted()
T35CC 000:427.865 - 0.283ms returns FALSE
T35CC 000:429.621 JLINK_IsHalted()
T35CC 000:429.928 - 0.315ms returns FALSE
T35CC 000:432.606 JLINK_IsHalted()
T35CC 000:432.887 - 0.289ms returns FALSE
T35CC 000:434.604 JLINK_IsHalted()
T35CC 000:434.859 - 0.263ms returns FALSE
T35CC 000:436.595 JLINK_IsHalted()
T35CC 000:436.865 - 0.278ms returns FALSE
T35CC 000:438.570 JLINK_IsHalted()
T35CC 000:438.856 - 0.293ms returns FALSE
T35CC 000:440.551 JLINK_IsHalted()
T35CC 000:440.870 - 0.327ms returns FALSE
T35CC 000:442.551 JLINK_IsHalted()
T35CC 000:442.884 - 0.341ms returns FALSE
T35CC 000:444.550 JLINK_IsHalted()
T35CC 000:444.827 - 0.285ms returns FALSE
T35CC 000:446.519 JLINK_IsHalted()
T35CC 000:446.834 - 0.324ms returns FALSE
T35CC 000:448.586 JLINK_IsHalted()
T35CC 000:448.866 - 0.288ms returns FALSE
T35CC 000:450.557 JLINK_IsHalted()
T35CC 000:451.901   CPU_ReadMem(2 bytes @ 0x20000000)
T35CC 000:452.234 - 1.684ms returns TRUE
T35CC 000:452.250 JLINK_ReadReg(R15 (PC))
T35CC 000:452.260 - 0.012ms returns 0x20000000
T35CC 000:452.269 JLINK_ClrBPEx(BPHandle = 0x00000005)
T35CC 000:452.276 - 0.010ms returns 0x00
T35CC 000:452.284 JLINK_ReadReg(R0)
T35CC 000:452.291 - 0.010ms returns 0x00000000
T35CC 000:452.754 JLINK_WriteMem(0x20000164, 0x029C Bytes, ...)
T35CC 000:452.765   Data:  03 22 01 F0 0B FC 4F F4 00 50 BD E8 10 40 00 F0 ...
T35CC 000:452.781   CPU_WriteMem(668 bytes @ 0x20000164)
T35CC 000:454.520 - 1.774ms returns 0x29C
T35CC 000:454.536 JLINK_WriteMem(0x20000400, 0x0164 Bytes, ...)
T35CC 000:454.544   Data:  18 BF 01 20 02 B0 70 47 70 B5 86 B0 04 46 86 88 ...
T35CC 000:454.558   CPU_WriteMem(356 bytes @ 0x20000400)
T35CC 000:455.834 - 1.306ms returns 0x164
T35CC 000:455.853 JLINK_WriteReg(R0, 0x08000400)
T35CC 000:455.863 - 0.013ms returns 0x00
T35CC 000:455.871 JLINK_WriteReg(R1, 0x00000400)
T35CC 000:455.878 - 0.010ms returns 0x00
T35CC 000:455.886 JLINK_WriteReg(R2, 0x20000164)
T35CC 000:455.893 - 0.010ms returns 0x00
T35CC 000:455.901 JLINK_WriteReg(R3, 0x00000000)
T35CC 000:455.908 - 0.009ms returns 0x00
T35CC 000:455.916 JLINK_WriteReg(R4, 0x00000000)
T35CC 000:455.922 - 0.009ms returns 0x00
T35CC 000:455.930 JLINK_WriteReg(R5, 0x00000000)
T35CC 000:455.937 - 0.009ms returns 0x00
T35CC 000:455.945 JLINK_WriteReg(R6, 0x00000000)
T35CC 000:455.952 - 0.012ms returns 0x00
T35CC 000:455.963 JLINK_WriteReg(R7, 0x00000000)
T35CC 000:455.970 - 0.009ms returns 0x00
T35CC 000:455.978 JLINK_WriteReg(R8, 0x00000000)
T35CC 000:455.985 - 0.010ms returns 0x00
T35CC 000:455.993 JLINK_WriteReg(R9, 0x20000160)
T35CC 000:455.999 - 0.009ms returns 0x00
T35CC 000:456.007 JLINK_WriteReg(R10, 0x00000000)
T35CC 000:456.014 - 0.009ms returns 0x00
T35CC 000:456.022 JLINK_WriteReg(R11, 0x00000000)
T35CC 000:456.028 - 0.009ms returns 0x00
T35CC 000:456.036 JLINK_WriteReg(R12, 0x00000000)
T35CC 000:456.043 - 0.009ms returns 0x00
T35CC 000:456.051 JLINK_WriteReg(R13 (SP), 0x20001000)
T35CC 000:456.058 - 0.010ms returns 0x00
T35CC 000:456.066 JLINK_WriteReg(R14, 0x20000001)
T35CC 000:456.073 - 0.009ms returns 0x00
T35CC 000:456.081 JLINK_WriteReg(R15 (PC), 0x200000F4)
T35CC 000:456.088 - 0.010ms returns 0x00
T35CC 000:456.096 JLINK_WriteReg(XPSR, 0x01000000)
T35CC 000:456.102 - 0.009ms returns 0x00
T35CC 000:456.110 JLINK_WriteReg(MSP, 0x20001000)
T35CC 000:456.117 - 0.009ms returns 0x00
T35CC 000:456.125 JLINK_WriteReg(PSP, 0x20001000)
T35CC 000:456.131 - 0.009ms returns 0x00
T35CC 000:456.139 JLINK_WriteReg(CFBP, 0x00000000)
T35CC 000:456.146 - 0.009ms returns 0x00
T35CC 000:456.155   JLINK_SetBPEx(Addr = 0x20000000, Type = 0xFFFFFFF2)
T35CC 000:456.165 - 0.014ms returns 0x00000006
T35CC 000:456.174 JLINK_Go()
T35CC 000:456.186   CPU_ReadMem(4 bytes @ 0xE0001000)
T35CC 000:457.831 - 1.665ms
T35CC 000:457.847 JLINK_IsHalted()
T35CC 000:458.140 - 0.301ms returns FALSE
T35CC 000:459.537 JLINK_IsHalted()
T35CC 000:459.816 - 0.287ms returns FALSE
T35CC 000:461.546 JLINK_IsHalted()
T35CC 000:461.791 - 0.253ms returns FALSE
T35CC 000:463.522 JLINK_IsHalted()
T35CC 000:463.761 - 0.248ms returns FALSE
T35CC 000:465.487 JLINK_IsHalted()
T35CC 000:465.755 - 0.276ms returns FALSE
T35CC 000:467.513 JLINK_IsHalted()
T35CC 000:467.793 - 0.287ms returns FALSE
T35CC 000:469.515 JLINK_IsHalted()
T35CC 000:469.823 - 0.316ms returns FALSE
T35CC 000:471.526 JLINK_IsHalted()
T35CC 000:471.832 - 0.314ms returns FALSE
T35CC 000:473.415 JLINK_IsHalted()
T35CC 000:473.650 - 0.243ms returns FALSE
T35CC 000:475.406 JLINK_IsHalted()
T35CC 000:475.691 - 0.292ms returns FALSE
T35CC 000:477.471 JLINK_IsHalted()
T35CC 000:477.823 - 0.360ms returns FALSE
T35CC 000:479.488 JLINK_IsHalted()
T35CC 000:479.842 - 0.361ms returns FALSE
T35CC 000:481.461 JLINK_IsHalted()
T35CC 000:481.839 - 0.386ms returns FALSE
T35CC 000:483.468 JLINK_IsHalted()
T35CC 000:483.805 - 0.345ms returns FALSE
T35CC 000:485.492 JLINK_IsHalted()
T35CC 000:485.842 - 0.358ms returns FALSE
T35CC 000:487.478 JLINK_IsHalted()
T35CC 000:487.841 - 0.371ms returns FALSE
T35CC 000:489.465 JLINK_IsHalted()
T35CC 000:490.914   CPU_ReadMem(2 bytes @ 0x20000000)
T35CC 000:491.255 - 1.798ms returns TRUE
T35CC 000:491.271 JLINK_ReadReg(R15 (PC))
T35CC 000:491.281 - 0.012ms returns 0x20000000
T35CC 000:491.289 JLINK_ClrBPEx(BPHandle = 0x00000006)
T35CC 000:491.296 - 0.010ms returns 0x00
T35CC 000:491.305 JLINK_ReadReg(R0)
T35CC 000:491.312 - 0.010ms returns 0x00000000
T35CC 000:491.784 JLINK_WriteMem(0x20000164, 0x029C Bytes, ...)
T35CC 000:491.795   Data:  30 46 01 21 FF F7 F2 FE 30 46 41 46 00 F0 E8 F8 ...
T35CC 000:491.811   CPU_WriteMem(668 bytes @ 0x20000164)
T35CC 000:493.549 - 1.773ms returns 0x29C
T35CC 000:493.565 JLINK_WriteMem(0x20000400, 0x0164 Bytes, ...)
T35CC 000:493.572   Data:  B8 42 0E D1 80 20 32 4C 01 21 30 60 32 20 A0 47 ...
T35CC 000:493.588   CPU_WriteMem(356 bytes @ 0x20000400)
T35CC 000:494.840 - 1.283ms returns 0x164
T35CC 000:494.860 JLINK_WriteReg(R0, 0x08000800)
T35CC 000:494.869 - 0.013ms returns 0x00
T35CC 000:494.878 JLINK_WriteReg(R1, 0x00000400)
T35CC 000:494.885 - 0.010ms returns 0x00
T35CC 000:494.893 JLINK_WriteReg(R2, 0x20000164)
T35CC 000:494.900 - 0.009ms returns 0x00
T35CC 000:494.908 JLINK_WriteReg(R3, 0x00000000)
T35CC 000:494.914 - 0.009ms returns 0x00
T35CC 000:494.922 JLINK_WriteReg(R4, 0x00000000)
T35CC 000:494.929 - 0.009ms returns 0x00
T35CC 000:494.972 JLINK_WriteReg(R5, 0x00000000)
T35CC 000:494.980 - 0.012ms returns 0x00
T35CC 000:494.988 JLINK_WriteReg(R6, 0x00000000)
T35CC 000:494.995 - 0.009ms returns 0x00
T35CC 000:495.003 JLINK_WriteReg(R7, 0x00000000)
T35CC 000:495.010 - 0.009ms returns 0x00
T35CC 000:495.018 JLINK_WriteReg(R8, 0x00000000)
T35CC 000:495.024 - 0.010ms returns 0x00
T35CC 000:495.032 JLINK_WriteReg(R9, 0x20000160)
T35CC 000:495.039 - 0.009ms returns 0x00
T35CC 000:495.047 JLINK_WriteReg(R10, 0x00000000)
T35CC 000:495.054 - 0.009ms returns 0x00
T35CC 000:495.062 JLINK_WriteReg(R11, 0x00000000)
T35CC 000:495.068 - 0.009ms returns 0x00
T35CC 000:495.076 JLINK_WriteReg(R12, 0x00000000)
T35CC 000:495.083 - 0.009ms returns 0x00
T35CC 000:495.091 JLINK_WriteReg(R13 (SP), 0x20001000)
T35CC 000:495.098 - 0.010ms returns 0x00
T35CC 000:495.106 JLINK_WriteReg(R14, 0x20000001)
T35CC 000:495.113 - 0.009ms returns 0x00
T35CC 000:495.121 JLINK_WriteReg(R15 (PC), 0x200000F4)
T35CC 000:495.127 - 0.010ms returns 0x00
T35CC 000:495.135 JLINK_WriteReg(XPSR, 0x01000000)
T35CC 000:495.142 - 0.009ms returns 0x00
T35CC 000:495.151 JLINK_WriteReg(MSP, 0x20001000)
T35CC 000:495.157 - 0.009ms returns 0x00
T35CC 000:495.165 JLINK_WriteReg(PSP, 0x20001000)
T35CC 000:495.172 - 0.009ms returns 0x00
T35CC 000:495.180 JLINK_WriteReg(CFBP, 0x00000000)
T35CC 000:495.187 - 0.009ms returns 0x00
T35CC 000:495.195   JLINK_SetBPEx(Addr = 0x20000000, Type = 0xFFFFFFF2)
T35CC 000:495.206 - 0.013ms returns 0x00000007
T35CC 000:495.214 JLINK_Go()
T35CC 000:495.227   CPU_ReadMem(4 bytes @ 0xE0001000)
T35CC 000:497.015 - 1.810ms
T35CC 000:497.033 JLINK_IsHalted()
T35CC 000:497.329 - 0.304ms returns FALSE
T35CC 000:499.430 JLINK_IsHalted()
T35CC 000:499.731 - 0.309ms returns FALSE
T35CC 000:501.424 JLINK_IsHalted()
T35CC 000:501.733 - 0.317ms returns FALSE
T35CC 000:503.423 JLINK_IsHalted()
T35CC 000:503.686 - 0.271ms returns FALSE
T35CC 000:505.414 JLINK_IsHalted()
T35CC 000:505.721 - 0.315ms returns FALSE
T35CC 000:507.422 JLINK_IsHalted()
T35CC 000:507.721 - 0.306ms returns FALSE
T35CC 000:509.427 JLINK_IsHalted()
T35CC 000:509.826 - 0.408ms returns FALSE
T35CC 000:511.396 JLINK_IsHalted()
T35CC 000:511.671 - 0.283ms returns FALSE
T35CC 000:513.420 JLINK_IsHalted()
T35CC 000:513.675 - 0.263ms returns FALSE
T35CC 000:515.384 JLINK_IsHalted()
T35CC 000:515.694 - 0.317ms returns FALSE
T35CC 000:517.382 JLINK_IsHalted()
T35CC 000:517.679 - 0.304ms returns FALSE
T35CC 000:519.373 JLINK_IsHalted()
T35CC 000:519.669 - 0.304ms returns FALSE
T35CC 000:521.371 JLINK_IsHalted()
T35CC 000:521.659 - 0.296ms returns FALSE
T35CC 000:523.334 JLINK_IsHalted()
T35CC 000:523.696 - 0.370ms returns FALSE
T35CC 000:526.411 JLINK_IsHalted()
T35CC 000:526.699 - 0.296ms returns FALSE
T35CC 000:528.420 JLINK_IsHalted()
T35CC 000:529.763   CPU_ReadMem(2 bytes @ 0x20000000)
T35CC 000:530.108 - 1.696ms returns TRUE
T35CC 000:530.124 JLINK_ReadReg(R15 (PC))
T35CC 000:530.133 - 0.013ms returns 0x20000000
T35CC 000:530.142 JLINK_ClrBPEx(BPHandle = 0x00000007)
T35CC 000:530.150 - 0.010ms returns 0x00
T35CC 000:530.158 JLINK_ReadReg(R0)
T35CC 000:530.165 - 0.010ms returns 0x00000000
T35CC 000:530.621 JLINK_WriteMem(0x20000164, 0x029C Bytes, ...)
T35CC 000:530.631   Data:  D7 FB 01 20 BD E8 F0 81 3B 24 00 08 D0 B4 45 45 ...
T35CC 000:530.647   CPU_WriteMem(668 bytes @ 0x20000164)
T35CC 000:532.409 - 1.797ms returns 0x29C
T35CC 000:532.426 JLINK_WriteMem(0x20000400, 0x0164 Bytes, ...)
T35CC 000:532.434   Data:  38 24 00 08 FE E7 70 47 70 B5 C2 78 11 49 A2 B1 ...
T35CC 000:532.448   CPU_WriteMem(356 bytes @ 0x20000400)
T35CC 000:533.691 - 1.273ms returns 0x164
T35CC 000:533.711 JLINK_WriteReg(R0, 0x08000C00)
T35CC 000:533.720 - 0.013ms returns 0x00
T35CC 000:533.729 JLINK_WriteReg(R1, 0x00000400)
T35CC 000:533.736 - 0.010ms returns 0x00
T35CC 000:533.744 JLINK_WriteReg(R2, 0x20000164)
T35CC 000:533.751 - 0.010ms returns 0x00
T35CC 000:533.759 JLINK_WriteReg(R3, 0x00000000)
T35CC 000:533.765 - 0.009ms returns 0x00
T35CC 000:533.778 JLINK_WriteReg(R4, 0x00000000)
T35CC 000:533.786 - 0.011ms returns 0x00
T35CC 000:533.794 JLINK_WriteReg(R5, 0x00000000)
T35CC 000:533.800 - 0.009ms returns 0x00
T35CC 000:533.808 JLINK_WriteReg(R6, 0x00000000)
T35CC 000:533.815 - 0.009ms returns 0x00
T35CC 000:533.823 JLINK_WriteReg(R7, 0x00000000)
T35CC 000:533.830 - 0.009ms returns 0x00
T35CC 000:533.838 JLINK_WriteReg(R8, 0x00000000)
T35CC 000:533.844 - 0.009ms returns 0x00
T35CC 000:533.852 JLINK_WriteReg(R9, 0x20000160)
T35CC 000:533.859 - 0.009ms returns 0x00
T35CC 000:533.867 JLINK_WriteReg(R10, 0x00000000)
T35CC 000:533.873 - 0.009ms returns 0x00
T35CC 000:533.881 JLINK_WriteReg(R11, 0x00000000)
T35CC 000:533.888 - 0.009ms returns 0x00
T35CC 000:533.896 JLINK_WriteReg(R12, 0x00000000)
T35CC 000:533.903 - 0.009ms returns 0x00
T35CC 000:533.911 JLINK_WriteReg(R13 (SP), 0x20001000)
T35CC 000:533.918 - 0.010ms returns 0x00
T35CC 000:533.926 JLINK_WriteReg(R14, 0x20000001)
T35CC 000:533.933 - 0.009ms returns 0x00
T35CC 000:533.941 JLINK_WriteReg(R15 (PC), 0x200000F4)
T35CC 000:533.947 - 0.009ms returns 0x00
T35CC 000:533.955 JLINK_WriteReg(XPSR, 0x01000000)
T35CC 000:533.962 - 0.009ms returns 0x00
T35CC 000:533.970 JLINK_WriteReg(MSP, 0x20001000)
T35CC 000:533.977 - 0.009ms returns 0x00
T35CC 000:533.985 JLINK_WriteReg(PSP, 0x20001000)
T35CC 000:533.991 - 0.009ms returns 0x00
T35CC 000:533.999 JLINK_WriteReg(CFBP, 0x00000000)
T35CC 000:534.006 - 0.009ms returns 0x00
T35CC 000:534.015   JLINK_SetBPEx(Addr = 0x20000000, Type = 0xFFFFFFF2)
T35CC 000:534.025 - 0.013ms returns 0x00000008
T35CC 000:534.033 JLINK_Go()
T35CC 000:534.045   CPU_ReadMem(4 bytes @ 0xE0001000)
T35CC 000:535.852 - 1.827ms
T35CC 000:535.869 JLINK_IsHalted()
T35CC 000:536.167 - 0.307ms returns FALSE
T35CC 000:537.377 JLINK_IsHalted()
T35CC 000:537.681 - 0.312ms returns FALSE
T35CC 000:539.391 JLINK_IsHalted()
T35CC 000:539.681 - 0.298ms returns FALSE
T35CC 000:541.373 JLINK_IsHalted()
T35CC 000:541.671 - 0.306ms returns FALSE
T35CC 000:544.404 JLINK_IsHalted()
T35CC 000:544.686 - 0.289ms returns FALSE
T35CC 000:546.428 JLINK_IsHalted()
T35CC 000:546.727 - 0.307ms returns FALSE
T35CC 000:548.394 JLINK_IsHalted()
T35CC 000:548.706 - 0.320ms returns FALSE
T35CC 000:550.387 JLINK_IsHalted()
T35CC 000:550.685 - 0.305ms returns FALSE
T35CC 000:552.403 JLINK_IsHalted()
T35CC 000:552.717 - 0.321ms returns FALSE
T35CC 000:554.624 JLINK_IsHalted()
T35CC 000:554.966 - 0.350ms returns FALSE
T35CC 000:556.616 JLINK_IsHalted()
T35CC 000:556.973 - 0.365ms returns FALSE
T35CC 000:558.557 JLINK_IsHalted()
T35CC 000:558.886 - 0.337ms returns FALSE
T35CC 000:560.594 JLINK_IsHalted()
T35CC 000:560.886 - 0.299ms returns FALSE
T35CC 000:562.512 JLINK_IsHalted()
T35CC 000:562.847 - 0.342ms returns FALSE
T35CC 000:564.575 JLINK_IsHalted()
T35CC 000:564.902 - 0.335ms returns FALSE
T35CC 000:566.550 JLINK_IsHalted()
T35CC 000:567.916   CPU_ReadMem(2 bytes @ 0x20000000)
T35CC 000:568.256 - 1.714ms returns TRUE
T35CC 000:568.273 JLINK_ReadReg(R15 (PC))
T35CC 000:568.282 - 0.013ms returns 0x20000000
T35CC 000:568.291 JLINK_ClrBPEx(BPHandle = 0x00000008)
T35CC 000:568.298 - 0.010ms returns 0x00
T35CC 000:568.307 JLINK_ReadReg(R0)
T35CC 000:568.314 - 0.010ms returns 0x00000000
T35CC 000:568.794 JLINK_WriteMem(0x20000164, 0x029C Bytes, ...)
T35CC 000:568.804   Data:  D4 23 00 08 01 22 38 49 B2 EB 50 1F 04 D0 42 09 ...
T35CC 000:568.821   CPU_WriteMem(668 bytes @ 0x20000164)
T35CC 000:570.583 - 1.797ms returns 0x29C
T35CC 000:570.600 JLINK_WriteMem(0x20000400, 0x0164 Bytes, ...)
T35CC 000:570.607   Data:  00 F0 8A F8 00 24 03 E0 20 46 00 F0 0C F8 04 46 ...
T35CC 000:570.622   CPU_WriteMem(356 bytes @ 0x20000400)
T35CC 000:571.827 - 1.235ms returns 0x164
T35CC 000:571.846 JLINK_WriteReg(R0, 0x08001000)
T35CC 000:571.856 - 0.013ms returns 0x00
T35CC 000:571.864 JLINK_WriteReg(R1, 0x00000400)
T35CC 000:571.872 - 0.010ms returns 0x00
T35CC 000:571.880 JLINK_WriteReg(R2, 0x20000164)
T35CC 000:571.887 - 0.010ms returns 0x00
T35CC 000:571.899 JLINK_WriteReg(R3, 0x00000000)
T35CC 000:571.906 - 0.011ms returns 0x00
T35CC 000:571.914 JLINK_WriteReg(R4, 0x00000000)
T35CC 000:571.921 - 0.009ms returns 0x00
T35CC 000:571.929 JLINK_WriteReg(R5, 0x00000000)
T35CC 000:571.936 - 0.010ms returns 0x00
T35CC 000:571.944 JLINK_WriteReg(R6, 0x00000000)
T35CC 000:571.951 - 0.009ms returns 0x00
T35CC 000:571.959 JLINK_WriteReg(R7, 0x00000000)
T35CC 000:571.966 - 0.010ms returns 0x00
T35CC 000:571.974 JLINK_WriteReg(R8, 0x00000000)
T35CC 000:571.980 - 0.009ms returns 0x00
T35CC 000:571.988 JLINK_WriteReg(R9, 0x20000160)
T35CC 000:571.995 - 0.009ms returns 0x00
T35CC 000:572.003 JLINK_WriteReg(R10, 0x00000000)
T35CC 000:572.009 - 0.009ms returns 0x00
T35CC 000:572.017 JLINK_WriteReg(R11, 0x00000000)
T35CC 000:572.024 - 0.009ms returns 0x00
T35CC 000:572.032 JLINK_WriteReg(R12, 0x00000000)
T35CC 000:572.039 - 0.009ms returns 0x00
T35CC 000:572.047 JLINK_WriteReg(R13 (SP), 0x20001000)
T35CC 000:572.054 - 0.010ms returns 0x00
T35CC 000:572.062 JLINK_WriteReg(R14, 0x20000001)
T35CC 000:572.069 - 0.009ms returns 0x00
T35CC 000:572.077 JLINK_WriteReg(R15 (PC), 0x200000F4)
T35CC 000:572.083 - 0.010ms returns 0x00
T35CC 000:572.091 JLINK_WriteReg(XPSR, 0x01000000)
T35CC 000:572.098 - 0.009ms returns 0x00
T35CC 000:572.106 JLINK_WriteReg(MSP, 0x20001000)
T35CC 000:572.113 - 0.009ms returns 0x00
T35CC 000:572.121 JLINK_WriteReg(PSP, 0x20001000)
T35CC 000:572.128 - 0.009ms returns 0x00
T35CC 000:572.136 JLINK_WriteReg(CFBP, 0x00000000)
T35CC 000:572.142 - 0.009ms returns 0x00
T35CC 000:572.151   JLINK_SetBPEx(Addr = 0x20000000, Type = 0xFFFFFFF2)
T35CC 000:572.161 - 0.014ms returns 0x00000009
T35CC 000:572.169 JLINK_Go()
T35CC 000:572.181   CPU_ReadMem(4 bytes @ 0xE0001000)
T35CC 000:573.864 - 1.704ms
T35CC 000:573.882 JLINK_IsHalted()
T35CC 000:574.143 - 0.269ms returns FALSE
T35CC 000:575.468 JLINK_IsHalted()
T35CC 000:575.814 - 0.355ms returns FALSE
T35CC 000:577.517 JLINK_IsHalted()
T35CC 000:577.841 - 0.332ms returns FALSE
T35CC 000:579.564 JLINK_IsHalted()
T35CC 000:579.899 - 0.343ms returns FALSE
T35CC 000:581.536 JLINK_IsHalted()
T35CC 000:581.798 - 0.269ms returns FALSE
T35CC 000:583.534 JLINK_IsHalted()
T35CC 000:583.795 - 0.269ms returns FALSE
T35CC 000:585.527 JLINK_IsHalted()
T35CC 000:585.833 - 0.314ms returns FALSE
T35CC 000:587.545 JLINK_IsHalted()
T35CC 000:587.825 - 0.287ms returns FALSE
T35CC 000:589.512 JLINK_IsHalted()
T35CC 000:589.839 - 0.334ms returns FALSE
T35CC 000:591.503 JLINK_IsHalted()
T35CC 000:591.839 - 0.343ms returns FALSE
T35CC 000:593.517 JLINK_IsHalted()
T35CC 000:593.800 - 0.291ms returns FALSE
T35CC 000:595.496 JLINK_IsHalted()
T35CC 000:595.839 - 0.351ms returns FALSE
T35CC 000:597.513 JLINK_IsHalted()
T35CC 000:597.841 - 0.336ms returns FALSE
T35CC 000:599.479 JLINK_IsHalted()
T35CC 000:599.841 - 0.369ms returns FALSE
T35CC 000:601.496 JLINK_IsHalted()
T35CC 000:601.851 - 0.363ms returns FALSE
T35CC 000:603.483 JLINK_IsHalted()
T35CC 000:603.826 - 0.351ms returns FALSE
T35CC 000:605.467 JLINK_IsHalted()
T35CC 000:606.918   CPU_ReadMem(2 bytes @ 0x20000000)
T35CC 000:607.261 - 1.801ms returns TRUE
T35CC 000:607.277 JLINK_ReadReg(R15 (PC))
T35CC 000:607.287 - 0.013ms returns 0x20000000
T35CC 000:607.296 JLINK_ClrBPEx(BPHandle = 0x00000009)
T35CC 000:607.303 - 0.010ms returns 0x00
T35CC 000:607.312 JLINK_ReadReg(R0)
T35CC 000:607.318 - 0.010ms returns 0x00000000
T35CC 000:607.802 JLINK_WriteMem(0x20000164, 0x029C Bytes, ...)
T35CC 000:607.813   Data:  C0 07 FA D1 10 20 20 60 10 BD 00 BF 2D E9 F0 41 ...
T35CC 000:607.828   CPU_WriteMem(668 bytes @ 0x20000164)
T35CC 000:609.579 - 1.786ms returns 0x29C
T35CC 000:609.596 JLINK_WriteMem(0x20000400, 0x0164 Bytes, ...)
T35CC 000:609.604   Data:  63 03 8C 42 08 BF 06 F1 0C 00 19 21 00 68 48 43 ...
T35CC 000:609.619   CPU_WriteMem(356 bytes @ 0x20000400)
T35CC 000:610.843 - 1.255ms returns 0x164
T35CC 000:610.863 JLINK_WriteReg(R0, 0x08001400)
T35CC 000:610.873 - 0.014ms returns 0x00
T35CC 000:610.881 JLINK_WriteReg(R1, 0x00000400)
T35CC 000:610.892 - 0.014ms returns 0x00
T35CC 000:610.901 JLINK_WriteReg(R2, 0x20000164)
T35CC 000:610.908 - 0.010ms returns 0x00
T35CC 000:610.916 JLINK_WriteReg(R3, 0x00000000)
T35CC 000:610.923 - 0.010ms returns 0x00
T35CC 000:610.931 JLINK_WriteReg(R4, 0x00000000)
T35CC 000:610.938 - 0.010ms returns 0x00
T35CC 000:610.946 JLINK_WriteReg(R5, 0x00000000)
T35CC 000:610.953 - 0.010ms returns 0x00
T35CC 000:610.961 JLINK_WriteReg(R6, 0x00000000)
T35CC 000:610.968 - 0.010ms returns 0x00
T35CC 000:610.976 JLINK_WriteReg(R7, 0x00000000)
T35CC 000:610.983 - 0.010ms returns 0x00
T35CC 000:610.991 JLINK_WriteReg(R8, 0x00000000)
T35CC 000:610.998 - 0.010ms returns 0x00
T35CC 000:611.006 JLINK_WriteReg(R9, 0x20000160)
T35CC 000:611.013 - 0.010ms returns 0x00
T35CC 000:611.021 JLINK_WriteReg(R10, 0x00000000)
T35CC 000:611.028 - 0.010ms returns 0x00
T35CC 000:611.036 JLINK_WriteReg(R11, 0x00000000)
T35CC 000:611.043 - 0.010ms returns 0x00
T35CC 000:611.051 JLINK_WriteReg(R12, 0x00000000)
T35CC 000:611.058 - 0.010ms returns 0x00
T35CC 000:611.066 JLINK_WriteReg(R13 (SP), 0x20001000)
T35CC 000:611.074 - 0.011ms returns 0x00
T35CC 000:611.082 JLINK_WriteReg(R14, 0x20000001)
T35CC 000:611.089 - 0.010ms returns 0x00
T35CC 000:611.097 JLINK_WriteReg(R15 (PC), 0x200000F4)
T35CC 000:611.104 - 0.010ms returns 0x00
T35CC 000:611.112 JLINK_WriteReg(XPSR, 0x01000000)
T35CC 000:611.119 - 0.010ms returns 0x00
T35CC 000:611.127 JLINK_WriteReg(MSP, 0x20001000)
T35CC 000:611.134 - 0.010ms returns 0x00
T35CC 000:611.142 JLINK_WriteReg(PSP, 0x20001000)
T35CC 000:611.149 - 0.010ms returns 0x00
T35CC 000:611.157 JLINK_WriteReg(CFBP, 0x00000000)
T35CC 000:611.164 - 0.010ms returns 0x00
T35CC 000:611.173   JLINK_SetBPEx(Addr = 0x20000000, Type = 0xFFFFFFF2)
T35CC 000:611.184 - 0.014ms returns 0x0000000A
T35CC 000:611.192 JLINK_Go()
T35CC 000:611.204   CPU_ReadMem(4 bytes @ 0xE0001000)
T35CC 000:613.019 - 1.835ms
T35CC 000:613.036 JLINK_IsHalted()
T35CC 000:613.329 - 0.302ms returns FALSE
T35CC 000:615.447 JLINK_IsHalted()
T35CC 000:615.748 - 0.309ms returns FALSE
T35CC 000:617.434 JLINK_IsHalted()
T35CC 000:617.729 - 0.303ms returns FALSE
T35CC 000:619.430 JLINK_IsHalted()
T35CC 000:619.737 - 0.315ms returns FALSE
T35CC 000:621.424 JLINK_IsHalted()
T35CC 000:621.734 - 0.318ms returns FALSE
T35CC 000:623.411 JLINK_IsHalted()
T35CC 000:623.699 - 0.296ms returns FALSE
T35CC 000:625.367 JLINK_IsHalted()
T35CC 000:625.660 - 0.302ms returns FALSE
T35CC 000:627.409 JLINK_IsHalted()
T35CC 000:627.722 - 0.320ms returns FALSE
T35CC 000:629.407 JLINK_IsHalted()
T35CC 000:629.708 - 0.308ms returns FALSE
T35CC 000:631.395 JLINK_IsHalted()
T35CC 000:631.700 - 0.313ms returns FALSE
T35CC 000:633.392 JLINK_IsHalted()
T35CC 000:633.697 - 0.313ms returns FALSE
T35CC 000:635.414 JLINK_IsHalted()
T35CC 000:635.697 - 0.291ms returns FALSE
T35CC 000:637.435 JLINK_IsHalted()
T35CC 000:637.736 - 0.309ms returns FALSE
T35CC 000:639.430 JLINK_IsHalted()
T35CC 000:639.762 - 0.340ms returns FALSE
T35CC 000:641.426 JLINK_IsHalted()
T35CC 000:641.736 - 0.318ms returns FALSE
T35CC 000:643.419 JLINK_IsHalted()
T35CC 000:644.784   CPU_ReadMem(2 bytes @ 0x20000000)
T35CC 000:645.128 - 1.717ms returns TRUE
T35CC 000:645.145 JLINK_ReadReg(R15 (PC))
T35CC 000:645.154 - 0.013ms returns 0x20000000
T35CC 000:645.163 JLINK_ClrBPEx(BPHandle = 0x0000000A)
T35CC 000:645.171 - 0.010ms returns 0x00
T35CC 000:645.180 JLINK_ReadReg(R0)
T35CC 000:645.187 - 0.010ms returns 0x00000000
T35CC 000:645.669 JLINK_WriteMem(0x20000164, 0x029C Bytes, ...)
T35CC 000:645.679   Data:  00 28 F9 D0 0D A0 BD E8 7C 40 00 F0 D1 BD 00 BF ...
T35CC 000:645.696   CPU_WriteMem(668 bytes @ 0x20000164)
T35CC 000:647.458 - 1.798ms returns 0x29C
T35CC 000:647.475 JLINK_WriteMem(0x20000400, 0x0164 Bytes, ...)
T35CC 000:647.483   Data:  FF FC 02 20 FE F7 06 FD 00 20 FF F7 C5 FA 4F F4 ...
T35CC 000:647.498   CPU_WriteMem(356 bytes @ 0x20000400)
T35CC 000:648.701 - 1.233ms returns 0x164
T35CC 000:648.721 JLINK_WriteReg(R0, 0x08001800)
T35CC 000:648.733 - 0.016ms returns 0x00
T35CC 000:648.743 JLINK_WriteReg(R1, 0x00000400)
T35CC 000:648.750 - 0.010ms returns 0x00
T35CC 000:648.758 JLINK_WriteReg(R2, 0x20000164)
T35CC 000:648.766 - 0.010ms returns 0x00
T35CC 000:648.774 JLINK_WriteReg(R3, 0x00000000)
T35CC 000:648.781 - 0.010ms returns 0x00
T35CC 000:648.789 JLINK_WriteReg(R4, 0x00000000)
T35CC 000:648.796 - 0.010ms returns 0x00
T35CC 000:648.804 JLINK_WriteReg(R5, 0x00000000)
T35CC 000:648.810 - 0.010ms returns 0x00
T35CC 000:648.819 JLINK_WriteReg(R6, 0x00000000)
T35CC 000:648.826 - 0.010ms returns 0x00
T35CC 000:648.834 JLINK_WriteReg(R7, 0x00000000)
T35CC 000:648.840 - 0.010ms returns 0x00
T35CC 000:648.849 JLINK_WriteReg(R8, 0x00000000)
T35CC 000:648.856 - 0.010ms returns 0x00
T35CC 000:648.864 JLINK_WriteReg(R9, 0x20000160)
T35CC 000:648.871 - 0.010ms returns 0x00
T35CC 000:648.879 JLINK_WriteReg(R10, 0x00000000)
T35CC 000:648.886 - 0.010ms returns 0x00
T35CC 000:648.894 JLINK_WriteReg(R11, 0x00000000)
T35CC 000:648.901 - 0.010ms returns 0x00
T35CC 000:648.909 JLINK_WriteReg(R12, 0x00000000)
T35CC 000:648.916 - 0.010ms returns 0x00
T35CC 000:648.924 JLINK_WriteReg(R13 (SP), 0x20001000)
T35CC 000:648.931 - 0.010ms returns 0x00
T35CC 000:648.939 JLINK_WriteReg(R14, 0x20000001)
T35CC 000:648.946 - 0.010ms returns 0x00
T35CC 000:648.954 JLINK_WriteReg(R15 (PC), 0x200000F4)
T35CC 000:648.961 - 0.010ms returns 0x00
T35CC 000:648.970 JLINK_WriteReg(XPSR, 0x01000000)
T35CC 000:648.976 - 0.010ms returns 0x00
T35CC 000:648.985 JLINK_WriteReg(MSP, 0x20001000)
T35CC 000:648.991 - 0.010ms returns 0x00
T35CC 000:649.000 JLINK_WriteReg(PSP, 0x20001000)
T35CC 000:649.006 - 0.010ms returns 0x00
T35CC 000:649.015 JLINK_WriteReg(CFBP, 0x00000000)
T35CC 000:649.021 - 0.010ms returns 0x00
T35CC 000:649.030   JLINK_SetBPEx(Addr = 0x20000000, Type = 0xFFFFFFF2)
